
T0E24 000:104 SEGGER J-Link V6.10i Log File (0000ms, 0078ms total)
T0E24 000:104 DLL Compiled: Oct 25 2016 19:31:51 (0000ms, 0078ms total)
T0E24 000:104 Logging started @ 2017-08-14 21:14 (0000ms, 0078ms total)
T0E24 000:104 JLINK_SetWarnOutHandler(...) (0000ms, 0078ms total)
T0E24 000:104 JLINK_OpenEx(...)
Firmware: J-Link ARM V8 compiled Nov 28 2014 13:44:46
Hardware: V8.00
S/N: 304423265
Feature(s): RDI,FlashDL,FlashBP,JFlash,GDBFULLWEBSRV Webserver running on local port 19080 (0049ms, 0127ms total)
T0E24 000:104   returns O.K. (0049ms, 0127ms total)
T0E24 000:153 JLINK_SetErrorOutHandler(...) (0000ms, 0127ms total)
T0E24 000:153 JLINK_ExecCommand("ProjectFile = "D:\work\mcu\stm32f407\SG1\dev\JLinkSettings.ini"", ...).   returns 0x00 (0122ms, 0249ms total)
T0E24 000:275 JLINK_ExecCommand("Device = STM32F407VE", ...). Device "STM32F407VE" selected.  returns 0x00 (0000ms, 0249ms total)
T0E24 000:275 JLINK_ExecCommand("DisableConnectionTimeout", ...).   returns 0x01 (0000ms, 0249ms total)
T0E24 000:276 JLINK_GetHardwareVersion()  returns 0x13880 (0000ms, 0249ms total)
T0E24 000:276 JLINK_GetDLLVersion()  returns 61009 (0000ms, 0249ms total)
T0E24 000:276 JLINK_GetFirmwareString(...) (0000ms, 0249ms total)
T0E24 000:276 JLINK_GetDLLVersion()  returns 61009 (0000ms, 0249ms total)
T0E24 000:276 JLINK_GetCompileDateTime() (0000ms, 0249ms total)
T0E24 000:276 JLINK_GetFirmwareString(...) (0000ms, 0249ms total)
T0E24 000:276 JLINK_GetHardwareVersion()  returns 0x13880 (0000ms, 0249ms total)
T0E24 000:276 JLINK_TIF_Select(JLINKARM_TIF_JTAG)  returns 0x00 (0016ms, 0265ms total)
T0E24 000:292 JLINK_SetSpeed(50000) (0002ms, 0267ms total)
T0E24 000:294 JLINK_GetIdData(...) >0x2F8 JTAG>TotalIRLen = 9, IRPrint = 0x0011 >0x30 JTAG> >0x410 JTAG> >0x40 JTAG> >0x40 JTAG> >0x40 JTAG> >0x30 JTAG> >0x40 JTAG> >0x40 JTAG> >0x40 JTAG> >0x40 JTAG> >0x40 JTAG> >0x40 JTAG> >0x40 JTAG> >0x40 JTAG> >0x40 JTAG> >0x40 JTAG> >0x40 JTAG> >0x40 JTAG> >0x40 JTAG> >0x40 JTAG> >0x40 JTAG> >0x40 JTAG> >0x40 JTAG> >0x40 JTAG> >0x40 JTAG> >0x40 JTAG> >0x2F8 JTAG>TotalIRLen = 9, IRPrint = 0x0011 >0x30 JTAG> >0x410 JTAG> >0x70 JTAG> >0x50 JTAG> >0x40 JTAG>
 >0x50 JTAG>AP-IDR: 0x24770011, Type: AHB-APStart searching for Cortex-M ROM table with ROMTable[0] @ 0xE00FF000.ROMTable[1]: Cortex-M ROM table found. >0x80 JTAG> >0x40 JTAG> >0x30 JTAG> >0x40 JTAG> >0x40 JTAG> >0x30 JTAG> >0x40 JTAG> >0x50 JTAG>Found Cortex-M4 r0p1, Little endian. -- CPU_ReadMem(4 bytes @ 0xE000EDF0) -- CPU_WriteMem(4 bytes @ 0xE000EDF0) -- CPU_ReadMem(4 bytes @ 0xE0002000)FPUnit: 6 code (BP) slots and 2 literal slots -- CPU_ReadMem(4 bytes @ 0xE000EDFC)
 -- CPU_WriteMem(4 bytes @ 0xE000EDFC) -- CPU_ReadMem(4 bytes @ 0xE0001000) -- CPU_WriteMem(4 bytes @ 0xE0001000) -- CPU_ReadMem(4 bytes @ 0xE000ED88) -- CPU_WriteMem(4 bytes @ 0xE000ED88) -- CPU_ReadMem(4 bytes @ 0xE000ED88) -- CPU_WriteMem(4 bytes @ 0xE000ED88)CoreSight components:ROMTbl 0 @ E00FF000 -- CPU_ReadMem(16 bytes @ 0xE00FF000) -- CPU_ReadMem(16 bytes @ 0xE000EFF0) -- CPU_ReadMem(16 bytes @ 0xE000EFE0)ROMTbl 0 [0]: FFF0F000, CID: B105E00D, PID: 000BB00C SCS
 -- CPU_ReadMem(16 bytes @ 0xE0001FF0) -- CPU_ReadMem(16 bytes @ 0xE0001FE0)ROMTbl 0 [1]: FFF02000, CID: B105E00D, PID: 003BB002 DWT -- CPU_ReadMem(16 bytes @ 0xE0002FF0) -- CPU_ReadMem(16 bytes @ 0xE0002FE0)ROMTbl 0 [2]: FFF03000, CID: B105E00D, PID: 002BB003 FPB -- CPU_ReadMem(16 bytes @ 0xE0000FF0) -- CPU_ReadMem(16 bytes @ 0xE0000FE0)ROMTbl 0 [3]: FFF01000, CID: B105E00D, PID: 003BB001 ITM -- CPU_ReadMem(16 bytes @ 0xE00FF010) -- CPU_ReadMem(16 bytes @ 0xE0040FF0)
 -- CPU_ReadMem(16 bytes @ 0xE0040FE0)ROMTbl 0 [4]: FFF41000, CID: B105900D, PID: 000BB9A1 TPIU -- CPU_ReadMem(16 bytes @ 0xE0041FF0) -- CPU_ReadMem(16 bytes @ 0xE0041FE0)ROMTbl 0 [5]: FFF42000, CID: B105900D, PID: 000BB925 ETM ScanLen=9 NumDevices=2 aId[0]=0x4BA00477 aIrRead[0]=0 aScanLen[0]=0 aScanRead[0]=0 (0229ms, 0496ms total)
T0E24 000:524 JLINK_JTAG_GetDeviceID(DeviceIndex = 0)  returns 0x4BA00477 (0000ms, 0497ms total)
T0E24 000:524 JLINK_JTAG_GetDeviceInfo(DeviceIndex = 0)  returns 0x00 (0000ms, 0497ms total)
T0E24 000:524 JLINK_JTAG_GetDeviceID(DeviceIndex = 1)  returns 0x6413041 (0000ms, 0497ms total)
T0E24 000:524 JLINK_JTAG_GetDeviceInfo(DeviceIndex = 1)  returns 0x00 (0000ms, 0497ms total)
T0E24 000:524 JLINK_GetDLLVersion()  returns 61009 (0000ms, 0497ms total)
T0E24 000:524 JLINK_CORE_GetFound()  returns 0xE0000FF (0000ms, 0497ms total)
T0E24 000:524 JLINK_GetDebugInfo(0x100) -- Value=0xE00FF003  returns 0x00 (0000ms, 0497ms total)
T0E24 000:524 JLINK_GetDebugInfo(0x100) -- Value=0xE00FF003  returns 0x00 (0000ms, 0497ms total)
T0E24 000:524 JLINK_GetDebugInfo(0x101) -- Value=0xE0041000  returns 0x00 (0000ms, 0497ms total)
T0E24 000:524 JLINK_GetDebugInfo(0x102) -- Value=0x00000000  returns 0x00 (0000ms, 0497ms total)
T0E24 000:524 JLINK_GetDebugInfo(0x103) -- Value=0xE0040000  returns 0x00 (0000ms, 0497ms total)
T0E24 000:524 JLINK_GetDebugInfo(0x104) -- Value=0xE0000000  returns 0x00 (0000ms, 0497ms total)
T0E24 000:524 JLINK_GetDebugInfo(0x105) -- Value=0xE0001000  returns 0x00 (0000ms, 0497ms total)
T0E24 000:524 JLINK_GetDebugInfo(0x106) -- Value=0xE0002000  returns 0x00 (0000ms, 0497ms total)
T0E24 000:524 JLINK_GetDebugInfo(0x107) -- Value=0xE000E000  returns 0x00 (0000ms, 0497ms total)
T0E24 000:524 JLINK_GetDebugInfo(0x10C) -- Value=0xE000EDF0  returns 0x00 (0000ms, 0497ms total)
T0E24 000:524 JLINK_ReadMemU32(0xE000EF40, 0x0001 Items, ...) -- CPU is running -- CPU_ReadMem(4 bytes @ 0xE000EF40) - Data: 21 00 11 10  returns 0x01 (0003ms, 0500ms total)
T0E24 000:527 JLINK_ReadMemU32(0xE000EF44, 0x0001 Items, ...) -- CPU is running -- CPU_ReadMem(4 bytes @ 0xE000EF44) - Data: 11 00 00 11  returns 0x01 (0003ms, 0503ms total)
T0E24 000:530 JLINK_ReadMemU32(0xE000ED00, 0x0001 Items, ...) -- CPU is running -- CPU_ReadMem(4 bytes @ 0xE000ED00) - Data: 41 C2 0F 41  returns 0x01 (0003ms, 0506ms total)
T0E24 000:533 JLINK_SetResetType(JLINKARM_RESET_TYPE_NORMAL)  returns JLINKARM_RESET_TYPE_NORMAL (0000ms, 0506ms total)
T0E24 000:533 JLINK_Reset() -- CPU is running -- CPU_WriteMem(4 bytes @ 0xE000EDF0) -- CPU is running -- CPU_WriteMem(4 bytes @ 0xE000EDFC) -- CPU is running -- CPU_WriteMem(4 bytes @ 0xE000ED0C) -- CPU is running -- CPU_ReadMem(4 bytes @ 0xE000EDF0) -- CPU is running -- CPU_ReadMem(4 bytes @ 0xE000EDF0) -- CPU is running -- CPU_WriteMem(4 bytes @ 0xE000EDF0) -- CPU is running -- CPU_WriteMem(4 bytes @ 0xE000EDFC) -- CPU is running -- CPU_ReadMem(4 bytes @ 0xE000EDF0) >0x80 JTAG> >0x40 JTAG> >0x30 JTAG>
 >0x40 JTAG> >0x50 JTAG> >0x40 JTAG> -- CPU_WriteMem(4 bytes @ 0xE000EDFC) -- CPU_WriteMem(4 bytes @ 0xE0001028) -- CPU_WriteMem(4 bytes @ 0xE0001038) -- CPU_WriteMem(4 bytes @ 0xE0001048) -- CPU_WriteMem(4 bytes @ 0xE0001058) -- CPU_WriteMem(4 bytes @ 0xE0002000) -- CPU_ReadMem(4 bytes @ 0xE000EDFC) -- CPU_ReadMem(4 bytes @ 0xE0001000) (0088ms, 0594ms total)
T0E24 000:621 JLINK_ReadReg(R15 (PC))  returns 0x0800019C (0000ms, 0594ms total)
T0E24 000:621 JLINK_ReadReg(XPSR)  returns 0x01000000 (0000ms, 0594ms total)
T0E24 000:621 JLINK_Halt()  returns 0x00 (0000ms, 0594ms total)
T0E24 000:621 JLINK_IsHalted()  returns TRUE (0000ms, 0594ms total)
T0E24 000:621 JLINK_ReadMemU32(0xE000EDF0, 0x0001 Items, ...) -- CPU_ReadMem(4 bytes @ 0xE000EDF0) - Data: 03 00 03 00  returns 0x01 (0003ms, 0597ms total)
T0E24 000:624 JLINK_WriteU32(0xE000EDF0, 0xA05F0003) -- CPU_WriteMem(4 bytes @ 0xE000EDF0)  returns 0x00 (0003ms, 0600ms total)
T0E24 000:627 JLINK_WriteU32(0xE000EDFC, 0x01000000) -- CPU_WriteMem(4 bytes @ 0xE000EDFC)  returns 0x00 (0003ms, 0603ms total)
T0E24 000:630 JLINK_GetHWStatus(...)  returns 0x00 (0004ms, 0607ms total)
T0E24 000:634 JLINK_GetNumBPUnits(Type = 0xFFFFFF00)  returns 0x06 (0000ms, 0607ms total)
T0E24 000:634 JLINK_GetNumBPUnits(Type = 0xF0)  returns 0x2000 (0000ms, 0607ms total)
T0E24 000:634 JLINK_GetNumWPUnits()  returns 0x04 (0000ms, 0607ms total)
T0E24 000:634 JLINK_GetSpeed()  returns 0x2EE0 (0000ms, 0607ms total)
T0E24 000:634 JLINK_ReadMemU32(0xE000E004, 0x0001 Items, ...) -- CPU_ReadMem(4 bytes @ 0xE000E004) - Data: 02 00 00 00  returns 0x01 (0003ms, 0610ms total)
T0E24 000:637 JLINK_ReadMemU32(0xE000E004, 0x0001 Items, ...) -- CPU_ReadMem(4 bytes @ 0xE000E004) - Data: 02 00 00 00  returns 0x01 (0003ms, 0613ms total)
T0E24 000:640 JLINK_WriteMem(0xE0001000, 0x001C Bytes, ...) - Data: 01 00 00 00 00 00 00 00 00 00 00 00 00 00 00 00 ... -- CPU_WriteMem(28 bytes @ 0xE0001000)  returns 0x1C (0004ms, 0617ms total)
T0E24 000:644 JLINK_ReadMem (0xE0001000, 0x001C Bytes, ...) -- CPU_ReadMem(28 bytes @ 0xE0001000) - Data: 01 00 00 40 00 00 00 00 00 00 00 00 00 00 00 00 ...  returns 0x00 (0003ms, 0620ms total)
T0E24 000:647 JLINK_ReadReg(R15 (PC))  returns 0x0800019C (0000ms, 0620ms total)
T0E24 000:647 JLINK_ReadReg(XPSR)  returns 0x01000000 (0000ms, 0620ms total)
T0E24 000:664 JLINK_ReadMem (0x08000000, 0x0860 Bytes, ...) -- CPU_ReadMem(2176 bytes @ 0x08000000) -- Updating C cache (2176 bytes @ 0x08000000) -- Read from C cache (2144 bytes @ 0x08000000) - Data: 58 04 00 20 9D 01 00 08 11 03 00 08 D1 02 00 08 ...  returns 0x00 (0010ms, 0630ms total)
T0E24 000:728 JLINK_SetResetType(JLINKARM_RESET_TYPE_NORMAL)  returns JLINKARM_RESET_TYPE_NORMAL (0000ms, 0630ms total)
T0E24 000:728 JLINK_Reset() -- CPU_WriteMem(4 bytes @ 0xE000EDF0) -- CPU_WriteMem(4 bytes @ 0xE000EDFC) -- CPU_WriteMem(4 bytes @ 0xE000ED0C) -- CPU_ReadMem(4 bytes @ 0xE000EDF0) -- CPU_ReadMem(4 bytes @ 0xE000EDF0) -- CPU_WriteMem(4 bytes @ 0xE000EDF0) -- CPU_WriteMem(4 bytes @ 0xE000EDFC) -- CPU is running -- CPU_ReadMem(4 bytes @ 0xE000EDF0) >0x80 JTAG> >0x40 JTAG> >0x30 JTAG> >0x40 JTAG> >0x50 JTAG> >0x40 JTAG> -- CPU_WriteMem(4 bytes @ 0xE000EDFC) -- CPU_WriteMem(4 bytes @ 0xE0001028)
 -- CPU_WriteMem(4 bytes @ 0xE0001038) -- CPU_WriteMem(4 bytes @ 0xE0001048) -- CPU_WriteMem(4 bytes @ 0xE0001058) -- CPU_WriteMem(4 bytes @ 0xE0002000) -- CPU_ReadMem(4 bytes @ 0xE000EDFC) -- CPU_ReadMem(4 bytes @ 0xE0001000) (0093ms, 0723ms total)
T0E24 000:821 JLINK_ReadReg(R15 (PC))  returns 0x0800019C (0000ms, 0723ms total)
T0E24 000:821 JLINK_ReadReg(XPSR)  returns 0x01000000 (0000ms, 0723ms total)
T0E24 000:821 JLINK_ReadMem (0x0800019C, 0x003C Bytes, ...) -- CPU_ReadMem(128 bytes @ 0x08000180) -- Updating C cache (128 bytes @ 0x08000180) -- Read from C cache (60 bytes @ 0x0800019C) - Data: 06 48 80 47 06 48 00 47 FE E7 FE E7 FE E7 FE E7 ...  returns 0x00 (0004ms, 0727ms total)
T0E24 000:912 JLINK_ReadMem (0x40004400, 0x0018 Bytes, ...) -- CPU_ReadMem(24 bytes @ 0x40004400) - Data: 00 00 00 00 00 00 00 00 00 00 00 00 00 00 00 00 ...  returns 0x00 (0003ms, 0730ms total)
T0E24 000:915 JLINK_ReadMem (0x40004418, 0x0004 Bytes, ...) -- CPU_ReadMem(4 bytes @ 0x40004418) - Data: 00 00 00 00  returns 0x00 (0004ms, 0734ms total)
T0D64 001:708 JLINK_SetBPEx(Addr = 0x08000694, Type = 0xFFFFFFF2)  returns 0x00000001 (0000ms, 0734ms total)
T0D64 001:708 JLINK_Go() -- CPU_ReadMem(4 bytes @ 0xE0001000) -- CPU_WriteMem(4 bytes @ 0xE0002008) -- CPU_WriteMem(4 bytes @ 0xE000200C) -- CPU_WriteMem(4 bytes @ 0xE0002010) -- CPU_WriteMem(4 bytes @ 0xE0002014) -- CPU_WriteMem(4 bytes @ 0xE0002018) -- CPU_WriteMem(4 bytes @ 0xE000201C) -- CPU_WriteMem(4 bytes @ 0xE0001004) (0027ms, 0761ms total)
T0D64 001:835 JLINK_IsHalted()  returns TRUE (0007ms, 0768ms total)
T0D64 001:843 JLINK_Halt()  returns 0x00 (0000ms, 0761ms total)
T0D64 001:843 JLINK_IsHalted()  returns TRUE (0000ms, 0761ms total)
T0D64 001:843 JLINK_IsHalted()  returns TRUE (0000ms, 0761ms total)
T0D64 001:843 JLINK_IsHalted()  returns TRUE (0000ms, 0761ms total)
T0D64 001:843 JLINK_ReadReg(R15 (PC))  returns 0x08000694 (0000ms, 0761ms total)
T0D64 001:843 JLINK_ReadReg(XPSR)  returns 0x61000000 (0000ms, 0761ms total)
T0D64 001:843 JLINK_ClrBPEx(BPHandle = 0x00000001)  returns 0x00 (0000ms, 0761ms total)
T0D64 001:843 JLINK_ReadMemU32(0xE000ED30, 0x0001 Items, ...) -- CPU_ReadMem(4 bytes @ 0xE000ED30) - Data: 03 00 00 00  returns 0x01 (0003ms, 0764ms total)
T0D64 001:846 JLINK_ReadMemU32(0xE0001028, 0x0001 Items, ...) -- CPU_ReadMem(4 bytes @ 0xE0001028) - Data: 00 00 00 00  returns 0x01 (0004ms, 0768ms total)
T0D64 001:850 JLINK_ReadMemU32(0xE0001038, 0x0001 Items, ...) -- CPU_ReadMem(4 bytes @ 0xE0001038) - Data: 00 02 00 00  returns 0x01 (0003ms, 0771ms total)
T0D64 001:854 JLINK_ReadMemU32(0xE0001048, 0x0001 Items, ...) -- CPU_ReadMem(4 bytes @ 0xE0001048) - Data: 00 00 00 00  returns 0x01 (0003ms, 0775ms total)
T0D64 001:857 JLINK_ReadMemU32(0xE0001058, 0x0001 Items, ...) -- CPU_ReadMem(4 bytes @ 0xE0001058) - Data: 00 00 00 00  returns 0x01 (0003ms, 0778ms total)
T0D64 001:861 JLINK_ReadReg(R0)  returns 0x08000695 (0000ms, 0778ms total)
T0D64 001:861 JLINK_ReadReg(R1)  returns 0x20000458 (0000ms, 0778ms total)
T0D64 001:861 JLINK_ReadReg(R2)  returns 0x00000000 (0000ms, 0778ms total)
T0D64 001:861 JLINK_ReadReg(R3)  returns 0x080004CD (0000ms, 0778ms total)
T0D64 001:861 JLINK_ReadReg(R4)  returns 0x08000808 (0000ms, 0778ms total)
T0D64 001:861 JLINK_ReadReg(R5)  returns 0x08000808 (0000ms, 0778ms total)
T0D64 001:861 JLINK_ReadReg(R6)  returns 0x00000000 (0000ms, 0778ms total)
T0D64 001:861 JLINK_ReadReg(R7)  returns 0x00000000 (0000ms, 0778ms total)
T0D64 001:861 JLINK_ReadReg(R8)  returns 0x00000000 (0000ms, 0778ms total)
T0D64 001:861 JLINK_ReadReg(R9)  returns 0x00000000 (0000ms, 0778ms total)
T0D64 001:861 JLINK_ReadReg(R10)  returns 0x00000000 (0000ms, 0778ms total)
T0D64 001:861 JLINK_ReadReg(R11)  returns 0x00000000 (0000ms, 0778ms total)
T0D64 001:861 JLINK_ReadReg(R12)  returns 0x00000000 (0000ms, 0778ms total)
T0D64 001:861 JLINK_ReadReg(R13 (SP))  returns 0x20000458 (0000ms, 0778ms total)
T0D64 001:861 JLINK_ReadReg(R14)  returns 0x080001DD (0000ms, 0778ms total)
T0D64 001:861 JLINK_ReadReg(R15 (PC))  returns 0x08000694 (0000ms, 0778ms total)
T0D64 001:861 JLINK_ReadReg(XPSR)  returns 0x61000000 (0000ms, 0778ms total)
T0D64 001:861 JLINK_ReadReg(MSP)  returns 0x20000458 (0000ms, 0778ms total)
T0D64 001:861 JLINK_ReadReg(PSP)  returns 0x00000000 (0000ms, 0778ms total)
T0D64 001:861 JLINK_ReadReg(CFBP)  returns 0x00000000 (0000ms, 0778ms total)
T0D64 001:861 JLINK_ReadReg(FPSCR)  returns 0x00000000 (0009ms, 0787ms total)
T0D64 001:870 JLINK_ReadReg(FPS0)  returns 0x00000000 (0000ms, 0787ms total)
T0D64 001:870 JLINK_ReadReg(FPS1)  returns 0x00000000 (0000ms, 0787ms total)
T0D64 001:870 JLINK_ReadReg(FPS2)  returns 0x00000000 (0000ms, 0787ms total)
T0D64 001:870 JLINK_ReadReg(FPS3)  returns 0x00000000 (0000ms, 0787ms total)
T0D64 001:870 JLINK_ReadReg(FPS4)  returns 0x00000000 (0000ms, 0787ms total)
T0D64 001:870 JLINK_ReadReg(FPS5)  returns 0x00000000 (0000ms, 0787ms total)
T0D64 001:870 JLINK_ReadReg(FPS6)  returns 0x00000000 (0000ms, 0787ms total)
T0D64 001:870 JLINK_ReadReg(FPS7)  returns 0x00000000 (0000ms, 0787ms total)
T0D64 001:870 JLINK_ReadReg(FPS8)  returns 0x00000000 (0000ms, 0787ms total)
T0D64 001:870 JLINK_ReadReg(FPS9)  returns 0x00000000 (0000ms, 0787ms total)
T0D64 001:870 JLINK_ReadReg(FPS10)  returns 0x00000000 (0000ms, 0787ms total)
T0D64 001:870 JLINK_ReadReg(FPS11)  returns 0x00000000 (0000ms, 0787ms total)
T0D64 001:870 JLINK_ReadReg(FPS12)  returns 0x00000000 (0000ms, 0787ms total)
T0D64 001:870 JLINK_ReadReg(FPS13)  returns 0x00000000 (0000ms, 0787ms total)
T0D64 001:870 JLINK_ReadReg(FPS14)  returns 0x00000000 (0000ms, 0787ms total)
T0D64 001:870 JLINK_ReadReg(FPS15)  returns 0x00000000 (0000ms, 0787ms total)
T0D64 001:870 JLINK_ReadReg(FPS16)  returns 0x00000000 (0000ms, 0787ms total)
T0D64 001:870 JLINK_ReadReg(FPS17)  returns 0x00000000 (0000ms, 0787ms total)
T0D64 001:871 JLINK_ReadReg(FPS18)  returns 0x00000000 (0000ms, 0787ms total)
T0D64 001:871 JLINK_ReadReg(FPS19)  returns 0x00000000 (0000ms, 0787ms total)
T0D64 001:871 JLINK_ReadReg(FPS20)  returns 0x00000000 (0000ms, 0787ms total)
T0D64 001:871 JLINK_ReadReg(FPS21)  returns 0x00000000 (0000ms, 0787ms total)
T0D64 001:871 JLINK_ReadReg(FPS22)  returns 0x00000000 (0000ms, 0787ms total)
T0D64 001:871 JLINK_ReadReg(FPS23)  returns 0x00000000 (0000ms, 0787ms total)
T0D64 001:871 JLINK_ReadReg(FPS24)  returns 0x00000000 (0000ms, 0787ms total)
T0D64 001:871 JLINK_ReadReg(FPS25)  returns 0x00000000 (0000ms, 0787ms total)
T0D64 001:871 JLINK_ReadReg(FPS26)  returns 0x00000000 (0000ms, 0787ms total)
T0D64 001:871 JLINK_ReadReg(FPS27)  returns 0x00000000 (0000ms, 0787ms total)
T0D64 001:871 JLINK_ReadReg(FPS28)  returns 0x00000000 (0000ms, 0787ms total)
T0D64 001:871 JLINK_ReadReg(FPS29)  returns 0x00000000 (0000ms, 0787ms total)
T0D64 001:871 JLINK_ReadReg(FPS30)  returns 0x00000000 (0000ms, 0787ms total)
T0D64 001:871 JLINK_ReadReg(FPS31)  returns 0x00000000 (0000ms, 0787ms total)
T0E24 001:883 JLINK_ReadMem (0x40004400, 0x0018 Bytes, ...) -- CPU_ReadMem(24 bytes @ 0x40004400) - Data: 00 00 00 00 00 00 00 00 00 00 00 00 00 00 00 00 ...  returns 0x00 (0003ms, 0790ms total)
T0E24 001:886 JLINK_ReadMem (0x40004418, 0x0004 Bytes, ...) -- CPU_ReadMem(4 bytes @ 0x40004418) - Data: 00 00 00 00  returns 0x00 (0004ms, 0794ms total)
T0E24 001:895 JLINK_ReadMem (0x08000594, 0x003C Bytes, ...) -- CPU_ReadMem(128 bytes @ 0x08000580) -- Updating C cache (128 bytes @ 0x08000580) -- Read from C cache (60 bytes @ 0x08000594) - Data: 40 F0 10 00 08 60 11 48 0C 30 00 68 40 F0 04 00 ...  returns 0x00 (0003ms, 0797ms total)
T0E24 001:898 JLINK_ReadMem (0x080005D0, 0x003C Bytes, ...) -- CPU_ReadMem(64 bytes @ 0x08000600) -- Updating C cache (64 bytes @ 0x08000600) -- Read from C cache (60 bytes @ 0x080005D0) - Data: 00 20 10 BD 30 38 02 40 00 10 02 40 08 38 01 40 ...  returns 0x00 (0004ms, 0801ms total)
T0E24 001:902 JLINK_ReadMem (0x0800060C, 0x003C Bytes, ...) -- CPU_ReadMem(64 bytes @ 0x08000640) -- Updating C cache (64 bytes @ 0x08000640) -- Read from C cache (60 bytes @ 0x0800060C) - Data: 92 00 02 F1 E0 22 C2 F8 00 11 00 BF 1B 48 00 68 ...  returns 0x00 (0003ms, 0804ms total)
T0E24 001:905 JLINK_ReadMem (0x08000648, 0x003C Bytes, ...) -- CPU_ReadMem(64 bytes @ 0x08000680) -- Updating C cache (64 bytes @ 0x08000680) -- Read from C cache (60 bytes @ 0x08000648) - Data: 10 11 08 43 0F 49 08 80 08 46 00 88 40 F0 07 00 ...  returns 0x00 (0003ms, 0807ms total)
T0E24 001:908 JLINK_ReadMem (0x08000692, 0x0002 Bytes, ...) -- Read from C cache (2 bytes @ 0x08000692) - Data: 00 20  returns 0x00 (0000ms, 0807ms total)
T0E24 001:908 JLINK_ReadMem (0x08000694, 0x003C Bytes, ...) -- CPU_ReadMem(64 bytes @ 0x080006C0) -- Updating C cache (64 bytes @ 0x080006C0) -- Read from C cache (60 bytes @ 0x08000694) - Data: FF F7 1E FE 00 F0 06 F8 FF F7 A2 FF FF F7 30 FF ...  returns 0x00 (0004ms, 0811ms total)
T0D64 004:712 JLINK_Go() -- CPU_ReadMem(4 bytes @ 0xE0001000) -- CPU_WriteMem(4 bytes @ 0xE0002008) (0013ms, 0824ms total)
T0D64 004:826 JLINK_IsHalted()  returns FALSE (0003ms, 0827ms total)
T0D64 004:929 JLINK_IsHalted()  returns FALSE (0003ms, 0827ms total)
T0D64 005:032 JLINK_IsHalted()  returns FALSE (0003ms, 0827ms total)
T0D64 005:135 JLINK_IsHalted()  returns FALSE (0003ms, 0827ms total)
T0D64 005:238 JLINK_IsHalted()  returns FALSE (0003ms, 0827ms total)
T0D64 005:341 JLINK_ReadMemU32(0xE0001004, 0x0001 Items, ...) -- CPU is running -- CPU_ReadMem(4 bytes @ 0xE0001004) - Data: 03 79 2F 06  returns 0x01 (0003ms, 0827ms total)
T0E24 005:353 JLINK_ReadMem (0x40004400, 0x0018 Bytes, ...) -- CPU is running -- CPU_ReadMem(24 bytes @ 0x40004400) - Data: C0 00 00 00 00 00 00 00 17 11 00 00 2C 20 00 00 ...  returns 0x00 (0004ms, 0831ms total)
T0E24 005:357 JLINK_ReadMem (0x40004418, 0x0004 Bytes, ...) -- CPU is running -- CPU_ReadMem(4 bytes @ 0x40004418) - Data: 00 00 00 00  returns 0x00 (0004ms, 0835ms total)
T0D64 005:377 JLINK_IsHalted()  returns FALSE (0004ms, 0839ms total)
T0D64 005:481 JLINK_IsHalted()  returns FALSE (0003ms, 0838ms total)
T0D64 005:584 JLINK_IsHalted()  returns FALSE (0003ms, 0838ms total)
T0D64 005:687 JLINK_IsHalted()  returns FALSE (0003ms, 0838ms total)
T0D64 005:790 JLINK_IsHalted()  returns FALSE (0003ms, 0838ms total)
T0D64 005:893 JLINK_ReadMemU32(0xE0001004, 0x0001 Items, ...) -- CPU is running - Data: 03 79 2F 06  returns 0x01 (0000ms, 0835ms total)
T0E24 005:902 JLINK_ReadMem (0x40004400, 0x0018 Bytes, ...) -- CPU is running -- CPU_ReadMem(24 bytes @ 0x40004400) - Data: C0 00 00 00 00 00 00 00 17 11 00 00 2C 20 00 00 ...  returns 0x00 (0003ms, 0838ms total)
T0E24 005:905 JLINK_ReadMem (0x40004418, 0x0004 Bytes, ...) -- CPU is running -- CPU_ReadMem(4 bytes @ 0x40004418) - Data: 00 00 00 00  returns 0x00 (0004ms, 0842ms total)
T0D64 005:910 JLINK_IsHalted()  returns FALSE (0003ms, 0845ms total)
T0D64 006:013 JLINK_IsHalted()  returns FALSE (0003ms, 0845ms total)
T0D64 006:116 JLINK_IsHalted()  returns FALSE (0003ms, 0845ms total)
T0D64 006:219 JLINK_IsHalted()  returns FALSE (0003ms, 0845ms total)
T0D64 006:322 JLINK_IsHalted()  returns FALSE (0003ms, 0845ms total)
T0D64 006:425 JLINK_ReadMemU32(0xE0001004, 0x0001 Items, ...) -- CPU is running - Data: 03 79 2F 06  returns 0x01 (0000ms, 0842ms total)
T0E24 006:434 JLINK_ReadMem (0x40004400, 0x0018 Bytes, ...) -- CPU is running -- CPU_ReadMem(24 bytes @ 0x40004400) - Data: C0 00 00 00 00 00 00 00 17 11 00 00 2C 20 00 00 ...  returns 0x00 (0003ms, 0845ms total)
T0E24 006:437 JLINK_ReadMem (0x40004418, 0x0004 Bytes, ...) -- CPU is running -- CPU_ReadMem(4 bytes @ 0x40004418) - Data: 00 00 00 00  returns 0x00 (0004ms, 0849ms total)
T0D64 006:442 JLINK_IsHalted()  returns FALSE (0003ms, 0852ms total)
T0D64 006:545 JLINK_IsHalted()  returns FALSE (0003ms, 0852ms total)
T0D64 006:648 JLINK_IsHalted()  returns FALSE (0003ms, 0852ms total)
T0D64 006:751 JLINK_IsHalted()  returns FALSE (0003ms, 0852ms total)
T0D64 006:854 JLINK_IsHalted()  returns FALSE (0003ms, 0852ms total)
T0D64 006:957 JLINK_ReadMemU32(0xE0001004, 0x0001 Items, ...) -- CPU is running - Data: 03 79 2F 06  returns 0x01 (0000ms, 0849ms total)
T0E24 006:966 JLINK_ReadMem (0x40004400, 0x0018 Bytes, ...) -- CPU is running -- CPU_ReadMem(24 bytes @ 0x40004400) - Data: C0 00 00 00 00 00 00 00 17 11 00 00 2C 20 00 00 ...  returns 0x00 (0003ms, 0852ms total)
T0E24 006:969 JLINK_ReadMem (0x40004418, 0x0004 Bytes, ...) -- CPU is running -- CPU_ReadMem(4 bytes @ 0x40004418) - Data: 00 00 00 00  returns 0x00 (0004ms, 0856ms total)
T0D64 006:973 JLINK_IsHalted()  returns FALSE (0004ms, 0860ms total)
T0D64 007:077 JLINK_IsHalted()  returns FALSE (0003ms, 0859ms total)
T0D64 007:180 JLINK_IsHalted()  returns FALSE (0003ms, 0859ms total)
T0D64 007:283 JLINK_IsHalted()  returns FALSE (0003ms, 0859ms total)
T0D64 007:386 JLINK_IsHalted()  returns FALSE (0003ms, 0859ms total)
T0D64 007:489 JLINK_ReadMemU32(0xE0001004, 0x0001 Items, ...) -- CPU is running - Data: 03 79 2F 06  returns 0x01 (0000ms, 0856ms total)
T0E24 007:498 JLINK_ReadMem (0x40004400, 0x0018 Bytes, ...) -- CPU is running -- CPU_ReadMem(24 bytes @ 0x40004400) - Data: C0 00 00 00 00 00 00 00 17 11 00 00 2C 20 00 00 ...  returns 0x00 (0003ms, 0859ms total)
T0E24 007:501 JLINK_ReadMem (0x40004418, 0x0004 Bytes, ...) -- CPU is running -- CPU_ReadMem(4 bytes @ 0x40004418) - Data: 00 00 00 00  returns 0x00 (0004ms, 0863ms total)
T0D64 007:505 JLINK_IsHalted()  returns FALSE (0004ms, 0867ms total)
T0D64 007:609 JLINK_IsHalted()  returns FALSE (0003ms, 0866ms total)
T0D64 007:712 JLINK_IsHalted()  returns FALSE (0003ms, 0866ms total)
T0D64 007:815 JLINK_IsHalted()  returns FALSE (0003ms, 0866ms total)
T0D64 007:918 JLINK_IsHalted()  returns FALSE (0003ms, 0866ms total)
T0D64 008:021 JLINK_ReadMemU32(0xE0001004, 0x0001 Items, ...) -- CPU is running - Data: 03 79 2F 06  returns 0x01 (0000ms, 0863ms total)
T0E24 008:031 JLINK_ReadMem (0x40004400, 0x0018 Bytes, ...) -- CPU is running -- CPU_ReadMem(24 bytes @ 0x40004400) - Data: D0 00 00 00 41 00 00 00 17 11 00 00 2C 20 00 00 ...  returns 0x00 (0004ms, 0867ms total)
T0E24 008:035 JLINK_ReadMem (0x40004418, 0x0004 Bytes, ...) -- CPU is running -- CPU_ReadMem(4 bytes @ 0x40004418) - Data: 00 00 00 00  returns 0x00 (0003ms, 0870ms total)
T0D64 008:049 JLINK_IsHalted()  returns FALSE (0004ms, 0874ms total)
T0D64 008:153 JLINK_IsHalted()  returns FALSE (0003ms, 0873ms total)
T0D64 008:256 JLINK_IsHalted()  returns FALSE (0003ms, 0873ms total)
T0D64 008:359 JLINK_IsHalted()  returns FALSE (0003ms, 0873ms total)
T0D64 008:462 JLINK_IsHalted()  returns FALSE (0003ms, 0873ms total)
T0D64 008:565 JLINK_ReadMemU32(0xE0001004, 0x0001 Items, ...) -- CPU is running - Data: 03 79 2F 06  returns 0x01 (0000ms, 0870ms total)
T0E24 008:576 JLINK_ReadMem (0x40004400, 0x0018 Bytes, ...) -- CPU is running -- CPU_ReadMem(24 bytes @ 0x40004400) - Data: D0 00 00 00 41 00 00 00 17 11 00 00 2C 20 00 00 ...  returns 0x00 (0003ms, 0873ms total)
T0E24 008:579 JLINK_ReadMem (0x40004418, 0x0004 Bytes, ...) -- CPU is running -- CPU_ReadMem(4 bytes @ 0x40004418) - Data: 00 00 00 00  returns 0x00 (0004ms, 0877ms total)
T0D64 008:583 JLINK_IsHalted()  returns FALSE (0004ms, 0881ms total)
